
T3144 000:455 SEGGER J-Link V4.80g Log File (0001ms, 0301ms total)
T3144 000:455 DLL Compiled: Feb 13 2014 20:50:02 (0001ms, 0301ms total)
T3144 000:455 Logging started @ 2017-10-25 14:57 (0001ms, 0301ms total)
T3144 000:456 JLINK_SetWarnOutHandler(...) (0000ms, 0301ms total)
T3144 000:456 JLINK_OpenEx(...)
Firmware: J-Link ARM V8 compiled Nov 25 2013 19:20:08
Hardware: V8.00
S/N: 308621590
Feature(s): RDI,FlashDL,FlashBP,JFlash,GDBFULL  returns O.K. (0296ms, 0597ms total)
T3144 000:752 JLINK_SetErrorOutHandler(...) (0000ms, 0597ms total)
T3144 000:752 JLINK_ExecCommand("ProjectFile = "E:\Ń§Ď°\Č«¶Żµç×ÓŇşľ§˛âĘÔłĚĐň\Ňşľ§ÄŁżéĹäĚ××ĘÁĎŐűŔí\×îĐÂÄŁżé´úÂë×ĘÁĎÖĆ×÷\´®żÚÄŁżé\2.2´ç\2.2´çSPI´®żÚ9341_240X320ÄŁżé×ĘÁĎ_Rev2.0\STM32_F103ĎµÁĐ˛âĘÔÔ´Âë\Example01\JLinkSettings.ini"", ...)  returns 0x00 (0001ms, 0598ms total)
T3144 000:759 JLINK_ExecCommand("Device = STM32F103VE", ...)Device "STM32F103VE" selected (512 KB flash, 64 KB RAM).  returns 0x00 (0020ms, 0618ms total)
T3144 000:779 JLINK_ExecCommand("DisableConnectionTimeout", ...)  returns 0x01 (0000ms, 0618ms total)
T3144 000:779 JLINK_GetHardwareVersion()  returns 0x13880 (0000ms, 0618ms total)
T3144 000:779 JLINK_GetDLLVersion()  returns 48007 (0000ms, 0618ms total)
T3144 000:779 JLINK_GetFirmwareString(...) (0000ms, 0618ms total)
T3144 000:800 JLINK_GetDLLVersion()  returns 48007 (0000ms, 0618ms total)
T3144 000:800 JLINK_GetCompileDateTime() (0000ms, 0618ms total)
T3144 000:803 JLINK_GetFirmwareString(...) (0000ms, 0618ms total)
T3144 000:807 JLINK_GetHardwareVersion()  returns 0x13880 (0001ms, 0619ms total)
T3144 000:819 JLINK_TIF_Select(JLINKARM_TIF_SWD)  returns 0x00 (0004ms, 0623ms total)
T3144 000:823 JLINK_SetSpeed(2000) (0001ms, 0624ms total)
T3144 000:824 JLINK_GetId() >0x108 TIF>Found SWD-DP with ID 0x1BA01477 >0x0D TIF> >0x28 TIF> >0x0D TIF> >0x28 TIF> >0x0D TIF> >0x21 TIF> >0x0D TIF> >0x28 TIF> >0x0D TIF> >0x28 TIF> >0x0D TIF> >0x28 TIF> >0x0D TIF> >0x21 TIF> >0x0D TIF> >0x21 TIF> >0x0D TIF> >0x28 TIF> >0x0D TIF> >0x21 TIF> >0x0D TIF> >0x21 TIF> >0x108 TIF>Found SWD-DP with ID 0x1BA01477 >0x0D TIF> >0x21 TIF> >0x0D TIF> >0x28 TIF> >0x0D TIF> >0x28 TIF> >0x0D TIF> >0x21 TIF> >0x0D TIF> >0x28 TIF> >0x0D TIF> >0x21 TIF> >0x0D TIF> >0x21 TIF>
 >0x0D TIF> >0x21 TIF> >0x0D TIF> >0x21 TIF> >0x0D TIF> >0x28 TIF> >0x0D TIF> >0x28 TIF> >0x0D TIF> >0x21 TIF> >0x0D TIF> >0x28 TIF> >0x0D TIF> >0x28 TIF> >0x0D TIF> >0x28 TIF> >0x0D TIF> >0x21 TIF> >0x0D TIF> >0x21 TIF> >0x0D TIF> >0x28 TIF> >0x0D TIF> >0x21 TIF> >0x0D TIF> >0x21 TIF>Found Cortex-M3 r1p1, Little endian. -- CPU_WriteMem(4 bytes @ 0xE0002000) -- CPU_ReadMem(4 bytes @ 0xE000EDF0) -- CPU_ReadMem(4 bytes @ 0xE0002000)FPUnit: 6 code (BP) slots and 2 literal slots
 -- CPU_ReadMem(4 bytes @ 0xE000EDFC) -- CPU_ReadMem(4 bytes @ 0xE0001000) -- CPU_WriteMem(4 bytes @ 0xE0001000) -- CPU_ReadMem(4 bytes @ 0xE00FF010)TPIU fitted. -- CPU_ReadMem(4 bytes @ 0xE00FF014)ETM fitted. -- CPU_ReadMem(4 bytes @ 0xE00FF018) >0x0D TIF> >0x21 TIF>  returns 0x1BA01477 (0099ms, 0723ms total)
T3144 000:923 JLINK_GetDeviceFamily()  returns 3 (0000ms, 0723ms total)
T3144 000:925 JLINK_ReadMem (0xE00FFFF0, 0x0010 Bytes, ...) -- CPU is running -- CPU_ReadMem(16 bytes @ 0xE00FFFF0) -- Data:  0D 00 00 00 10 00 00 00 05 00 00 00 B1 00 00 00  returns 0x00 (0001ms, 0724ms total)
T3144 000:926 JLINK_ReadMem (0xE00FFFD0, 0x0020 Bytes, ...) -- CPU is running -- CPU_ReadMem(32 bytes @ 0xE00FFFD0) -- Data:  00 00 00 00 00 00 00 00 00 00 00 00 00 00 00 00 ...  returns 0x00 (0001ms, 0725ms total)
T3144 000:927 JLINK_ReadMem (0xE00FF000, 0x0018 Bytes, ...) -- CPU is running -- CPU_ReadMem(24 bytes @ 0xE00FF000) -- Data:  03 F0 F0 FF 03 20 F0 FF 03 30 F0 FF 03 10 F0 FF ...  returns 0x00 (0001ms, 0726ms total)
T3144 000:928 JLINK_ReadMemU32(0xE000ED00, 0x0001 Items, ...) -- CPU is running -- CPU_ReadMem(4 bytes @ 0xE000ED00) -- Data:  31 C2 1F 41  returns 0x01 (0001ms, 0727ms total)
T3144 000:929 JLINK_SetResetType(JLINKARM_RESET_TYPE_NORMAL)  returns JLINKARM_RESET_TYPE_NORMAL (0000ms, 0727ms total)
T3144 000:929 JLINK_Reset() -- CPU is running -- CPU_WriteMem(4 bytes @ 0xE000EDF0) -- CPU is running -- CPU_WriteMem(4 bytes @ 0xE000EDFC) >0x35 TIF> -- CPU is running -- CPU_WriteMem(4 bytes @ 0xE000ED0C) -- CPU is running -- CPU_ReadMem(4 bytes @ 0xE000EDF0) -- CPU is running -- CPU_ReadMem(4 bytes @ 0xE000EDF0) -- CPU is running -- CPU_WriteMem(4 bytes @ 0xE000EDF0) -- CPU is running -- CPU_WriteMem(4 bytes @ 0xE000EDFC) -- CPU is running -- CPU_ReadMem(4 bytes @ 0xE000EDF0)
 -- CPU_WriteMem(4 bytes @ 0xE0002000) -- CPU_ReadMem(4 bytes @ 0xE000EDFC) -- CPU_ReadMem(4 bytes @ 0xE0001000) (0024ms, 0751ms total)
T3144 000:953 JLINK_Halt()  returns 0x00 (0000ms, 0751ms total)
T3144 000:953 JLINK_IsHalted()  returns TRUE (0000ms, 0751ms total)
T3144 000:953 JLINK_ReadMemU32(0xE000EDF0, 0x0001 Items, ...) -- CPU_ReadMem(4 bytes @ 0xE000EDF0) -- Data:  03 00 03 00  returns 0x01 (0001ms, 0752ms total)
T3144 000:954 JLINK_WriteU32(0xE000EDF0, 0xA05F0003) -- CPU_WriteMem(4 bytes @ 0xE000EDF0)  returns 0x00 (0001ms, 0753ms total)
T3144 000:955 JLINK_WriteU32(0xE000EDFC, 0x01000000) -- CPU_WriteMem(4 bytes @ 0xE000EDFC)  returns 0x00 (0001ms, 0754ms total)
T3144 000:966 JLINK_GetHWStatus(...)  returns 0x00 (0001ms, 0755ms total)
T3144 000:972 JLINK_GetNumBPUnits(Type = 0xFFFFFF00)  returns 0x06 (0000ms, 0755ms total)
T3144 000:972 JLINK_GetNumBPUnits(Type = 0xF0)  returns 0x2000 (0001ms, 0756ms total)
T3144 000:973 JLINK_GetNumWPUnits()  returns 0x04 (0000ms, 0756ms total)
T3144 000:978 JLINK_GetSpeed()  returns 0x7D0 (0000ms, 0756ms total)
T3144 000:986 JLINK_ReadMemU32(0xE000E004, 0x0001 Items, ...) -- CPU_ReadMem(4 bytes @ 0xE000E004) -- Data:  01 00 00 00  returns 0x01 (0001ms, 0757ms total)
T3144 000:987 JLINK_ReadMemU32(0xE000E004, 0x0001 Items, ...) -- CPU_ReadMem(4 bytes @ 0xE000E004) -- Data:  01 00 00 00  returns 0x01 (0001ms, 0758ms total)
T3144 000:988 JLINK_WriteMem(0xE0001000, 0x001C Bytes, ...) -- Data:  01 00 00 00 00 00 00 00 00 00 00 00 00 00 00 00 ... -- CPU_WriteMem(28 bytes @ 0xE0001000)  returns 0x1C (0001ms, 0759ms total)
T3144 000:989 JLINK_ReadMem (0xE0001000, 0x001C Bytes, ...) -- CPU_ReadMem(28 bytes @ 0xE0001000) -- Data:  01 00 00 40 00 00 00 00 00 00 00 00 00 00 00 00 ...  returns 0x00 (0001ms, 0760ms total)
T3144 000:990 JLINK_Halt()  returns 0x00 (0000ms, 0760ms total)
T3144 000:990 JLINK_IsHalted()  returns TRUE (0000ms, 0760ms total)
T3144 000:992 JLINK_WriteMem(0x20000000, 0x0164 Bytes, ...) -- Data:  00 BE 0A E0 0D 78 2D 06 68 40 08 24 40 00 00 D3 ... -- CPU_WriteMem(356 bytes @ 0x20000000)  returns 0x164 (0004ms, 0764ms total)
T3144 000:996 JLINK_WriteReg(R0, 0x08000000)  returns 0x00 (0000ms, 0764ms total)
T3144 000:996 JLINK_WriteReg(R1, 0x007A1200)  returns 0x00 (0000ms, 0764ms total)
T3144 000:996 JLINK_WriteReg(R2, 0x00000001)  returns 0x00 (0000ms, 0764ms total)
T3144 000:996 JLINK_WriteReg(R3, 0x00000000)  returns 0x00 (0000ms, 0764ms total)
T3144 000:996 JLINK_WriteReg(R4, 0x00000000)  returns 0x00 (0000ms, 0764ms total)
T3144 000:996 JLINK_WriteReg(R5, 0x00000000)  returns 0x00 (0000ms, 0764ms total)
T3144 000:996 JLINK_WriteReg(R6, 0x00000000)  returns 0x00 (0000ms, 0764ms total)
T3144 000:996 JLINK_WriteReg(R7, 0x00000000)  returns 0x00 (0000ms, 0764ms total)
T3144 000:996 JLINK_WriteReg(R8, 0x00000000)  returns 0x00 (0000ms, 0764ms total)
T3144 000:996 JLINK_WriteReg(R9, 0x20000160)  returns 0x00 (0000ms, 0764ms total)
T3144 000:996 JLINK_WriteReg(R10, 0x00000000)  returns 0x00 (0000ms, 0764ms total)
T3144 000:997 JLINK_WriteReg(R11, 0x00000000)  returns 0x00 (0000ms, 0764ms total)
T3144 000:997 JLINK_WriteReg(R12, 0x00000000)  returns 0x00 (0000ms, 0764ms total)
T3144 000:997 JLINK_WriteReg(R13 (SP), 0x20000800)  returns 0x00 (0000ms, 0764ms total)
T3144 000:997 JLINK_WriteReg(R14, 0x20000001)  returns 0x00 (0000ms, 0764ms total)
T3144 000:997 JLINK_WriteReg(R15 (PC), 0x20000038)  returns 0x00 (0000ms, 0764ms total)
T3144 000:997 JLINK_WriteReg(XPSR, 0x01000000)  returns 0x00 (0000ms, 0764ms total)
T3144 000:997 JLINK_WriteReg(MSP, 0x20000800)  returns 0x00 (0000ms, 0764ms total)
T3144 000:997 JLINK_WriteReg(PSP, 0x20000800)  returns 0x00 (0000ms, 0764ms total)
T3144 000:997 JLINK_WriteReg(CFBP, 0x00000000)  returns 0x00 (0000ms, 0764ms total)
T3144 000:997 JLINK_SetBPEx(Addr = 0x20000000, Type = 0xFFFFFFF2) -- CPU_ReadMem(2 bytes @ 0x20000000)  returns 0x00000001 (0001ms, 0765ms total)
T3144 000:998 JLINK_Go() -- CPU_WriteMem(2 bytes @ 0x20000000) -- CPU_WriteMem(4 bytes @ 0xE0002008) -- CPU_WriteMem(4 bytes @ 0xE000200C) -- CPU_WriteMem(4 bytes @ 0xE0002010) -- CPU_WriteMem(4 bytes @ 0xE0002014) -- CPU_WriteMem(4 bytes @ 0xE0002018) -- CPU_WriteMem(4 bytes @ 0xE000201C) -- CPU_WriteMem(4 bytes @ 0xE0001004) (0011ms, 0776ms total)
T3144 001:009 JLINK_IsHalted() -- CPU_ReadMem(2 bytes @ 0x20000000)  returns TRUE (0006ms, 0782ms total)
T3144 001:015 JLINK_ReadReg(R15 (PC))  returns 0x20000000 (0000ms, 0776ms total)
T3144 001:015 JLINK_ClrBPEx(BPHandle = 0x00000001)  returns 0x00 (0000ms, 0776ms total)
T3144 001:015 JLINK_ReadReg(R0)  returns 0x00000000 (0000ms, 0776ms total)
T3144 001:015 JLINK_WriteReg(R0, 0x08000000)  returns 0x00 (0000ms, 0776ms total)
T3144 001:015 JLINK_WriteReg(R1, 0x007A1200)  returns 0x00 (0000ms, 0776ms total)
T3144 001:015 JLINK_WriteReg(R2, 0x00000001)  returns 0x00 (0000ms, 0776ms total)
T3144 001:015 JLINK_WriteReg(R3, 0x00000000)  returns 0x00 (0000ms, 0776ms total)
T3144 001:016 JLINK_WriteReg(R4, 0x00000000)  returns 0x00 (0000ms, 0776ms total)
T3144 001:016 JLINK_WriteReg(R5, 0x00000000)  returns 0x00 (0000ms, 0776ms total)
T3144 001:016 JLINK_WriteReg(R6, 0x00000000)  returns 0x00 (0000ms, 0776ms total)
T3144 001:016 JLINK_WriteReg(R7, 0x00000000)  returns 0x00 (0000ms, 0776ms total)
T3144 001:016 JLINK_WriteReg(R8, 0x00000000)  returns 0x00 (0000ms, 0776ms total)
T3144 001:016 JLINK_WriteReg(R9, 0x20000160)  returns 0x00 (0000ms, 0776ms total)
T3144 001:016 JLINK_WriteReg(R10, 0x00000000)  returns 0x00 (0000ms, 0776ms total)
T3144 001:016 JLINK_WriteReg(R11, 0x00000000)  returns 0x00 (0000ms, 0776ms total)
T3144 001:016 JLINK_WriteReg(R12, 0x00000000)  returns 0x00 (0000ms, 0776ms total)
T3144 001:016 JLINK_WriteReg(R13 (SP), 0x20000800)  returns 0x00 (0000ms, 0776ms total)
T3144 001:016 JLINK_WriteReg(R14, 0x20000001)  returns 0x00 (0000ms, 0776ms total)
T3144 001:016 JLINK_WriteReg(R15 (PC), 0x2000007C)  returns 0x00 (0000ms, 0776ms total)
T3144 001:016 JLINK_WriteReg(XPSR, 0x01000000)  returns 0x00 (0000ms, 0776ms total)
T3144 001:016 JLINK_WriteReg(MSP, 0x20000800)  returns 0x00 (0000ms, 0776ms total)
T3144 001:016 JLINK_WriteReg(PSP, 0x20000800)  returns 0x00 (0000ms, 0776ms total)
T3144 001:016 JLINK_WriteReg(CFBP, 0x00000000)  returns 0x00 (0000ms, 0776ms total)
T3144 001:016 JLINK_SetBPEx(Addr = 0x20000000, Type = 0xFFFFFFF2)  returns 0x00000002 (0000ms, 0776ms total)
T3144 001:016 JLINK_Go() (0002ms, 0778ms total)
T3144 001:018 JLINK_IsHalted()  returns FALSE (0001ms, 0779ms total)
T3144 001:048 JLINK_IsHalted() -- CPU_ReadMem(2 bytes @ 0x20000000)  returns TRUE (0005ms, 0783ms total)
T3144 001:053 JLINK_ReadReg(R15 (PC))  returns 0x20000000 (0000ms, 0778ms total)
T3144 001:053 JLINK_ClrBPEx(BPHandle = 0x00000002)  returns 0x00 (0000ms, 0778ms total)
T3144 001:053 JLINK_ReadReg(R0)  returns 0x00000000 (0000ms, 0778ms total)
T3144 001:106 JLINK_WriteReg(R0, 0x00000001)  returns 0x00 (0000ms, 0778ms total)
T3144 001:106 JLINK_WriteReg(R1, 0x007A1200)  returns 0x00 (0000ms, 0778ms total)
T3144 001:106 JLINK_WriteReg(R2, 0x00000001)  returns 0x00 (0000ms, 0778ms total)
T3144 001:106 JLINK_WriteReg(R3, 0x00000000)  returns 0x00 (0000ms, 0778ms total)
T3144 001:106 JLINK_WriteReg(R4, 0x00000000)  returns 0x00 (0000ms, 0778ms total)
T3144 001:106 JLINK_WriteReg(R5, 0x00000000)  returns 0x00 (0000ms, 0778ms total)
T3144 001:106 JLINK_WriteReg(R6, 0x00000000)  returns 0x00 (0000ms, 0778ms total)
T3144 001:106 JLINK_WriteReg(R7, 0x00000000)  returns 0x00 (0000ms, 0778ms total)
T3144 001:106 JLINK_WriteReg(R8, 0x00000000)  returns 0x00 (0000ms, 0778ms total)
T3144 001:106 JLINK_WriteReg(R9, 0x20000160)  returns 0x00 (0000ms, 0778ms total)
T3144 001:106 JLINK_WriteReg(R10, 0x00000000)  returns 0x00 (0000ms, 0778ms total)
T3144 001:106 JLINK_WriteReg(R11, 0x00000000)  returns 0x00 (0000ms, 0778ms total)
T3144 001:106 JLINK_WriteReg(R12, 0x00000000)  returns 0x00 (0000ms, 0778ms total)
T3144 001:106 JLINK_WriteReg(R13 (SP), 0x20000800)  returns 0x00 (0000ms, 0778ms total)
T3144 001:106 JLINK_WriteReg(R14, 0x20000001)  returns 0x00 (0000ms, 0778ms total)
T3144 001:106 JLINK_WriteReg(R15 (PC), 0x2000006A)  returns 0x00 (0000ms, 0778ms total)
T3144 001:106 JLINK_WriteReg(XPSR, 0x01000000)  returns 0x00 (0001ms, 0779ms total)
T3144 001:107 JLINK_WriteReg(MSP, 0x20000800)  returns 0x00 (0000ms, 0779ms total)
T3144 001:107 JLINK_WriteReg(PSP, 0x20000800)  returns 0x00 (0000ms, 0779ms total)
T3144 001:107 JLINK_WriteReg(CFBP, 0x00000000)  returns 0x00 (0000ms, 0779ms total)
T3144 001:107 JLINK_SetBPEx(Addr = 0x20000000, Type = 0xFFFFFFF2)  returns 0x00000003 (0000ms, 0779ms total)
T3144 001:107 JLINK_Go() (0002ms, 0781ms total)
T3144 001:109 JLINK_IsHalted() -- CPU_ReadMem(2 bytes @ 0x20000000)  returns TRUE (0005ms, 0786ms total)
T3144 001:114 JLINK_ReadReg(R15 (PC))  returns 0x20000000 (0000ms, 0781ms total)
T3144 001:114 JLINK_ClrBPEx(BPHandle = 0x00000003)  returns 0x00 (0000ms, 0781ms total)
T3144 001:114 JLINK_ReadReg(R0)  returns 0x00000000 (0000ms, 0781ms total)
T3144 001:118 JLINK_WriteMem(0x20000000, 0x0164 Bytes, ...) -- Data:  00 BE 0A E0 0D 78 2D 06 68 40 08 24 40 00 00 D3 ... -- CPU_WriteMem(356 bytes @ 0x20000000)  returns 0x164 (0004ms, 0785ms total)
T3144 001:122 JLINK_WriteReg(R0, 0x08000000)  returns 0x00 (0000ms, 0785ms total)
T3144 001:122 JLINK_WriteReg(R1, 0x007A1200)  returns 0x00 (0000ms, 0785ms total)
T3144 001:122 JLINK_WriteReg(R2, 0x00000002)  returns 0x00 (0000ms, 0785ms total)
T3144 001:122 JLINK_WriteReg(R3, 0x00000000)  returns 0x00 (0000ms, 0785ms total)
T3144 001:122 JLINK_WriteReg(R4, 0x00000000)  returns 0x00 (0000ms, 0785ms total)
T3144 001:122 JLINK_WriteReg(R5, 0x00000000)  returns 0x00 (0000ms, 0785ms total)
T3144 001:122 JLINK_WriteReg(R6, 0x00000000)  returns 0x00 (0000ms, 0785ms total)
T3144 001:122 JLINK_WriteReg(R7, 0x00000000)  returns 0x00 (0000ms, 0785ms total)
T3144 001:122 JLINK_WriteReg(R8, 0x00000000)  returns 0x00 (0000ms, 0785ms total)
T3144 001:122 JLINK_WriteReg(R9, 0x20000160)  returns 0x00 (0000ms, 0785ms total)
T3144 001:122 JLINK_WriteReg(R10, 0x00000000)  returns 0x00 (0000ms, 0785ms total)
T3144 001:122 JLINK_WriteReg(R11, 0x00000000)  returns 0x00 (0000ms, 0785ms total)
T3144 001:122 JLINK_WriteReg(R12, 0x00000000)  returns 0x00 (0000ms, 0785ms total)
T3144 001:122 JLINK_WriteReg(R13 (SP), 0x20000800)  returns 0x00 (0001ms, 0786ms total)
T3144 001:123 JLINK_WriteReg(R14, 0x20000001)  returns 0x00 (0000ms, 0786ms total)
T3144 001:123 JLINK_WriteReg(R15 (PC), 0x20000038)  returns 0x00 (0000ms, 0786ms total)
T3144 001:123 JLINK_WriteReg(XPSR, 0x01000000)  returns 0x00 (0000ms, 0786ms total)
T3144 001:123 JLINK_WriteReg(MSP, 0x20000800)  returns 0x00 (0000ms, 0786ms total)
T3144 001:123 JLINK_WriteReg(PSP, 0x20000800)  returns 0x00 (0000ms, 0786ms total)
T3144 001:123 JLINK_WriteReg(CFBP, 0x00000000)  returns 0x00 (0000ms, 0786ms total)
T3144 001:123 JLINK_SetBPEx(Addr = 0x20000000, Type = 0xFFFFFFF2) -- CPU_ReadMem(2 bytes @ 0x20000000)  returns 0x00000004 (0001ms, 0787ms total)
T3144 001:124 JLINK_Go() -- CPU_WriteMem(2 bytes @ 0x20000000) (0003ms, 0790ms total)
T3144 001:127 JLINK_IsHalted() -- CPU_ReadMem(2 bytes @ 0x20000000)  returns TRUE (0005ms, 0795ms total)
T3144 001:132 JLINK_ReadReg(R15 (PC))  returns 0x20000000 (0000ms, 0790ms total)
T3144 001:132 JLINK_ClrBPEx(BPHandle = 0x00000004)  returns 0x00 (0000ms, 0790ms total)
T3144 001:132 JLINK_ReadReg(R0)  returns 0x00000000 (0000ms, 0790ms total)
T3144 001:132 JLINK_WriteMem(0x20000164, 0x0400 Bytes, ...) -- Data:  00 04 00 20 47 01 00 08 75 01 00 08 7B 01 00 08 ... -- CPU_WriteMem(1024 bytes @ 0x20000164)  returns 0x400 (0011ms, 0801ms total)
T3144 001:144 JLINK_WriteReg(R0, 0x08000000)  returns 0x00 (0000ms, 0801ms total)
T3144 001:144 JLINK_WriteReg(R1, 0x00000400)  returns 0x00 (0000ms, 0801ms total)
T3144 001:144 JLINK_WriteReg(R2, 0x20000164)  returns 0x00 (0000ms, 0801ms total)
T3144 001:144 JLINK_WriteReg(R3, 0x00000000)  returns 0x00 (0000ms, 0801ms total)
T3144 001:144 JLINK_WriteReg(R4, 0x00000000)  returns 0x00 (0000ms, 0801ms total)
T3144 001:144 JLINK_WriteReg(R5, 0x00000000)  returns 0x00 (0000ms, 0801ms total)
T3144 001:144 JLINK_WriteReg(R6, 0x00000000)  returns 0x00 (0000ms, 0801ms total)
T3144 001:144 JLINK_WriteReg(R7, 0x00000000)  returns 0x00 (0000ms, 0801ms total)
T3144 001:144 JLINK_WriteReg(R8, 0x00000000)  returns 0x00 (0000ms, 0801ms total)
T3144 001:144 JLINK_WriteReg(R9, 0x20000160)  returns 0x00 (0000ms, 0801ms total)
T3144 001:144 JLINK_WriteReg(R10, 0x00000000)  returns 0x00 (0000ms, 0801ms total)
T3144 001:144 JLINK_WriteReg(R11, 0x00000000)  returns 0x00 (0000ms, 0801ms total)
T3144 001:144 JLINK_WriteReg(R12, 0x00000000)  returns 0x00 (0000ms, 0801ms total)
T3144 001:144 JLINK_WriteReg(R13 (SP), 0x20000800)  returns 0x00 (0000ms, 0801ms total)
T3144 001:144 JLINK_WriteReg(R14, 0x20000001)  returns 0x00 (0000ms, 0801ms total)
T3144 001:144 JLINK_WriteReg(R15 (PC), 0x200000F4)  returns 0x00 (0000ms, 0801ms total)
T3144 001:144 JLINK_WriteReg(XPSR, 0x01000000)  returns 0x00 (0000ms, 0801ms total)
T3144 001:144 JLINK_WriteReg(MSP, 0x20000800)  returns 0x00 (0000ms, 0801ms total)
T3144 001:144 JLINK_WriteReg(PSP, 0x20000800)  returns 0x00 (0000ms, 0801ms total)
T3144 001:144 JLINK_WriteReg(CFBP, 0x00000000)  returns 0x00 (0000ms, 0801ms total)
T3144 001:144 JLINK_SetBPEx(Addr = 0x20000000, Type = 0xFFFFFFF2)  returns 0x00000005 (0000ms, 0801ms total)
T3144 001:144 JLINK_Go() (0002ms, 0803ms total)
T3144 001:146 JLINK_IsHalted()  returns FALSE (0001ms, 0804ms total)
T3144 001:155 JLINK_IsHalted()  returns FALSE (0001ms, 0804ms total)
T3144 001:157 JLINK_IsHalted()  returns FALSE (0001ms, 0804ms total)
T3144 001:159 JLINK_IsHalted()  returns FALSE (0001ms, 0804ms total)
T3144 001:161 JLINK_IsHalted()  returns FALSE (0001ms, 0804ms total)
T3144 001:163 JLINK_IsHalted()  returns FALSE (0001ms, 0804ms total)
T3144 001:165 JLINK_IsHalted()  returns FALSE (0001ms, 0804ms total)
T3144 001:167 JLINK_IsHalted()  returns FALSE (0001ms, 0804ms total)
T3144 001:169 JLINK_IsHalted()  returns FALSE (0001ms, 0804ms total)
T3144 001:171 JLINK_IsHalted()  returns FALSE (0001ms, 0804ms total)
T3144 001:173 JLINK_IsHalted()  returns FALSE (0001ms, 0804ms total)
T3144 001:175 JLINK_IsHalted()  returns FALSE (0001ms, 0804ms total)
T3144 001:177 JLINK_IsHalted() -- CPU_ReadMem(2 bytes @ 0x20000000)  returns TRUE (0005ms, 0808ms total)
T3144 001:182 JLINK_ReadReg(R15 (PC))  returns 0x20000000 (0000ms, 0803ms total)
T3144 001:182 JLINK_ClrBPEx(BPHandle = 0x00000005)  returns 0x00 (0000ms, 0803ms total)
T3144 001:182 JLINK_ReadReg(R0)  returns 0x00000000 (0000ms, 0803ms total)
T3144 001:183 JLINK_WriteMem(0x20000164, 0x0400 Bytes, ...) -- Data:  F6 20 FF F7 7F FF 01 20 FF F7 8F FF 30 20 FF F7 ... -- CPU_WriteMem(1024 bytes @ 0x20000164)  returns 0x400 (0011ms, 0814ms total)
T3144 001:194 JLINK_WriteReg(R0, 0x08000400)  returns 0x00 (0000ms, 0814ms total)
T3144 001:194 JLINK_WriteReg(R1, 0x00000400)  returns 0x00 (0000ms, 0814ms total)
T3144 001:194 JLINK_WriteReg(R2, 0x20000164)  returns 0x00 (0000ms, 0814ms total)
T3144 001:194 JLINK_WriteReg(R3, 0x00000000)  returns 0x00 (0000ms, 0814ms total)
T3144 001:194 JLINK_WriteReg(R4, 0x00000000)  returns 0x00 (0000ms, 0814ms total)
T3144 001:194 JLINK_WriteReg(R5, 0x00000000)  returns 0x00 (0000ms, 0814ms total)
T3144 001:194 JLINK_WriteReg(R6, 0x00000000)  returns 0x00 (0000ms, 0814ms total)
T3144 001:194 JLINK_WriteReg(R7, 0x00000000)  returns 0x00 (0000ms, 0814ms total)
T3144 001:194 JLINK_WriteReg(R8, 0x00000000)  returns 0x00 (0000ms, 0814ms total)
T3144 001:194 JLINK_WriteReg(R9, 0x20000160)  returns 0x00 (0000ms, 0814ms total)
T3144 001:194 JLINK_WriteReg(R10, 0x00000000)  returns 0x00 (0000ms, 0814ms total)
T3144 001:194 JLINK_WriteReg(R11, 0x00000000)  returns 0x00 (0000ms, 0814ms total)
T3144 001:194 JLINK_WriteReg(R12, 0x00000000)  returns 0x00 (0000ms, 0814ms total)
T3144 001:194 JLINK_WriteReg(R13 (SP), 0x20000800)  returns 0x00 (0000ms, 0814ms total)
T3144 001:194 JLINK_WriteReg(R14, 0x20000001)  returns 0x00 (0000ms, 0814ms total)
T3144 001:194 JLINK_WriteReg(R15 (PC), 0x200000F4)  returns 0x00 (0000ms, 0814ms total)
T3144 001:194 JLINK_WriteReg(XPSR, 0x01000000)  returns 0x00 (0001ms, 0815ms total)
T3144 001:195 JLINK_WriteReg(MSP, 0x20000800)  returns 0x00 (0000ms, 0815ms total)
T3144 001:195 JLINK_WriteReg(PSP, 0x20000800)  returns 0x00 (0000ms, 0815ms total)
T3144 001:195 JLINK_WriteReg(CFBP, 0x00000000)  returns 0x00 (0000ms, 0815ms total)
T3144 001:195 JLINK_SetBPEx(Addr = 0x20000000, Type = 0xFFFFFFF2)  returns 0x00000006 (0000ms, 0815ms total)
T3144 001:195 JLINK_Go() (0002ms, 0817ms total)
T3144 001:197 JLINK_IsHalted()  returns FALSE (0001ms, 0818ms total)
T3144 001:202 JLINK_IsHalted()  returns FALSE (0001ms, 0818ms total)
T3144 001:204 JLINK_IsHalted()  returns FALSE (0001ms, 0818ms total)
T3144 001:206 JLINK_IsHalted()  returns FALSE (0001ms, 0818ms total)
T3144 001:208 JLINK_IsHalted()  returns FALSE (0001ms, 0818ms total)
T3144 001:210 JLINK_IsHalted()  returns FALSE (0001ms, 0818ms total)
T3144 001:212 JLINK_IsHalted()  returns FALSE (0001ms, 0818ms total)
T3144 001:214 JLINK_IsHalted()  returns FALSE (0001ms, 0818ms total)
T3144 001:216 JLINK_IsHalted()  returns FALSE (0001ms, 0818ms total)
T3144 001:218 JLINK_IsHalted()  returns FALSE (0001ms, 0818ms total)
T3144 001:220 JLINK_IsHalted()  returns FALSE (0001ms, 0818ms total)
T3144 001:222 JLINK_IsHalted()  returns FALSE (0001ms, 0818ms total)
T3144 001:224 JLINK_IsHalted()  returns FALSE (0001ms, 0818ms total)
T3144 001:226 JLINK_IsHalted()  returns FALSE (0001ms, 0818ms total)
T3144 001:228 JLINK_IsHalted() -- CPU_ReadMem(2 bytes @ 0x20000000)  returns TRUE (0005ms, 0822ms total)
T3144 001:233 JLINK_ReadReg(R15 (PC))  returns 0x20000000 (0000ms, 0817ms total)
T3144 001:233 JLINK_ClrBPEx(BPHandle = 0x00000006)  returns 0x00 (0000ms, 0817ms total)
T3144 001:233 JLINK_ReadReg(R0)  returns 0x00000000 (0000ms, 0817ms total)
T3144 001:233 JLINK_WriteMem(0x20000164, 0x0400 Bytes, ...) -- Data:  90 B2 52 46 FF F7 04 FF 7A 19 91 B2 32 19 90 B2 ... -- CPU_WriteMem(1024 bytes @ 0x20000164)  returns 0x400 (0011ms, 0828ms total)
T3144 001:244 JLINK_WriteReg(R0, 0x08000800)  returns 0x00 (0000ms, 0828ms total)
T3144 001:244 JLINK_WriteReg(R1, 0x00000400)  returns 0x00 (0000ms, 0828ms total)
T3144 001:244 JLINK_WriteReg(R2, 0x20000164)  returns 0x00 (0000ms, 0828ms total)
T3144 001:244 JLINK_WriteReg(R3, 0x00000000)  returns 0x00 (0001ms, 0829ms total)
T3144 001:245 JLINK_WriteReg(R4, 0x00000000)  returns 0x00 (0000ms, 0829ms total)
T3144 001:245 JLINK_WriteReg(R5, 0x00000000)  returns 0x00 (0000ms, 0829ms total)
T3144 001:245 JLINK_WriteReg(R6, 0x00000000)  returns 0x00 (0000ms, 0829ms total)
T3144 001:245 JLINK_WriteReg(R7, 0x00000000)  returns 0x00 (0000ms, 0829ms total)
T3144 001:245 JLINK_WriteReg(R8, 0x00000000)  returns 0x00 (0000ms, 0829ms total)
T3144 001:245 JLINK_WriteReg(R9, 0x20000160)  returns 0x00 (0000ms, 0829ms total)
T3144 001:245 JLINK_WriteReg(R10, 0x00000000)  returns 0x00 (0000ms, 0829ms total)
T3144 001:245 JLINK_WriteReg(R11, 0x00000000)  returns 0x00 (0000ms, 0829ms total)
T3144 001:245 JLINK_WriteReg(R12, 0x00000000)  returns 0x00 (0000ms, 0829ms total)
T3144 001:245 JLINK_WriteReg(R13 (SP), 0x20000800)  returns 0x00 (0000ms, 0829ms total)
T3144 001:245 JLINK_WriteReg(R14, 0x20000001)  returns 0x00 (0000ms, 0829ms total)
T3144 001:245 JLINK_WriteReg(R15 (PC), 0x200000F4)  returns 0x00 (0000ms, 0829ms total)
T3144 001:245 JLINK_WriteReg(XPSR, 0x01000000)  returns 0x00 (0000ms, 0829ms total)
T3144 001:245 JLINK_WriteReg(MSP, 0x20000800)  returns 0x00 (0000ms, 0829ms total)
T3144 001:245 JLINK_WriteReg(PSP, 0x20000800)  returns 0x00 (0000ms, 0829ms total)
T3144 001:245 JLINK_WriteReg(CFBP, 0x00000000)  returns 0x00 (0000ms, 0829ms total)
T3144 001:245 JLINK_SetBPEx(Addr = 0x20000000, Type = 0xFFFFFFF2)  returns 0x00000007 (0000ms, 0829ms total)
T3144 001:245 JLINK_Go() (0002ms, 0831ms total)
T3144 001:247 JLINK_IsHalted()  returns FALSE (0001ms, 0832ms total)
T3144 001:253 JLINK_IsHalted()  returns FALSE (0001ms, 0832ms total)
T3144 001:255 JLINK_IsHalted()  returns FALSE (0001ms, 0832ms total)
T3144 001:257 JLINK_IsHalted()  returns FALSE (0001ms, 0832ms total)
T3144 001:259 JLINK_IsHalted()  returns FALSE (0001ms, 0832ms total)
T3144 001:264 JLINK_IsHalted()  returns FALSE (0001ms, 0832ms total)
T3144 001:266 JLINK_IsHalted()  returns FALSE (0001ms, 0832ms total)
T3144 001:268 JLINK_IsHalted()  returns FALSE (0001ms, 0832ms total)
T3144 001:270 JLINK_IsHalted()  returns FALSE (0001ms, 0832ms total)
T3144 001:272 JLINK_IsHalted()  returns FALSE (0001ms, 0832ms total)
T3144 001:274 JLINK_IsHalted()  returns FALSE (0001ms, 0832ms total)
T3144 001:276 JLINK_IsHalted()  returns FALSE (0001ms, 0832ms total)
T3144 001:278 JLINK_IsHalted() -- CPU_ReadMem(2 bytes @ 0x20000000)  returns TRUE (0005ms, 0836ms total)
T3144 001:283 JLINK_ReadReg(R15 (PC))  returns 0x20000000 (0000ms, 0831ms total)
T3144 001:283 JLINK_ClrBPEx(BPHandle = 0x00000007)  returns 0x00 (0000ms, 0831ms total)
T3144 001:283 JLINK_ReadReg(R0)  returns 0x00000000 (0000ms, 0831ms total)
T3144 001:283 JLINK_WriteMem(0x20000164, 0x0400 Bytes, ...) -- Data:  FF F7 35 FE 4F F6 FF 70 2B 46 32 46 39 46 00 90 ... -- CPU_WriteMem(1024 bytes @ 0x20000164)  returns 0x400 (0011ms, 0842ms total)
T3144 001:294 JLINK_WriteReg(R0, 0x08000C00)  returns 0x00 (0000ms, 0842ms total)
T3144 001:294 JLINK_WriteReg(R1, 0x00000400)  returns 0x00 (0000ms, 0842ms total)
T3144 001:294 JLINK_WriteReg(R2, 0x20000164)  returns 0x00 (0000ms, 0842ms total)
T3144 001:294 JLINK_WriteReg(R3, 0x00000000)  returns 0x00 (0000ms, 0842ms total)
T3144 001:295 JLINK_WriteReg(R4, 0x00000000)  returns 0x00 (0000ms, 0842ms total)
T3144 001:295 JLINK_WriteReg(R5, 0x00000000)  returns 0x00 (0000ms, 0842ms total)
T3144 001:295 JLINK_WriteReg(R6, 0x00000000)  returns 0x00 (0000ms, 0842ms total)
T3144 001:295 JLINK_WriteReg(R7, 0x00000000)  returns 0x00 (0000ms, 0842ms total)
T3144 001:295 JLINK_WriteReg(R8, 0x00000000)  returns 0x00 (0000ms, 0842ms total)
T3144 001:295 JLINK_WriteReg(R9, 0x20000160)  returns 0x00 (0000ms, 0842ms total)
T3144 001:295 JLINK_WriteReg(R10, 0x00000000)  returns 0x00 (0000ms, 0842ms total)
T3144 001:295 JLINK_WriteReg(R11, 0x00000000)  returns 0x00 (0000ms, 0842ms total)
T3144 001:295 JLINK_WriteReg(R12, 0x00000000)  returns 0x00 (0000ms, 0842ms total)
T3144 001:295 JLINK_WriteReg(R13 (SP), 0x20000800)  returns 0x00 (0000ms, 0842ms total)
T3144 001:295 JLINK_WriteReg(R14, 0x20000001)  returns 0x00 (0000ms, 0842ms total)
T3144 001:295 JLINK_WriteReg(R15 (PC), 0x200000F4)  returns 0x00 (0000ms, 0842ms total)
T3144 001:295 JLINK_WriteReg(XPSR, 0x01000000)  returns 0x00 (0000ms, 0842ms total)
T3144 001:295 JLINK_WriteReg(MSP, 0x20000800)  returns 0x00 (0000ms, 0842ms total)
T3144 001:295 JLINK_WriteReg(PSP, 0x20000800)  returns 0x00 (0000ms, 0842ms total)
T3144 001:295 JLINK_WriteReg(CFBP, 0x00000000)  returns 0x00 (0000ms, 0842ms total)
T3144 001:295 JLINK_SetBPEx(Addr = 0x20000000, Type = 0xFFFFFFF2)  returns 0x00000008 (0000ms, 0842ms total)
T3144 001:295 JLINK_Go() (0002ms, 0844ms total)
T3144 001:297 JLINK_IsHalted()  returns FALSE (0001ms, 0845ms total)
T3144 001:301 JLINK_IsHalted()  returns FALSE (0001ms, 0845ms total)
T3144 001:303 JLINK_IsHalted()  returns FALSE (0001ms, 0845ms total)
T3144 001:305 JLINK_IsHalted()  returns FALSE (0001ms, 0845ms total)
T3144 001:307 JLINK_IsHalted()  returns FALSE (0001ms, 0845ms total)
T3144 001:309 JLINK_IsHalted()  returns FALSE (0001ms, 0845ms total)
T3144 001:311 JLINK_IsHalted()  returns FALSE (0001ms, 0845ms total)
T3144 001:313 JLINK_IsHalted()  returns FALSE (0001ms, 0845ms total)
T3144 001:315 JLINK_IsHalted()  returns FALSE (0001ms, 0845ms total)
T3144 001:317 JLINK_IsHalted()  returns FALSE (0001ms, 0845ms total)
T3144 001:319 JLINK_IsHalted()  returns FALSE (0001ms, 0845ms total)
T3144 001:321 JLINK_IsHalted()  returns FALSE (0001ms, 0845ms total)
T3144 001:323 JLINK_IsHalted()  returns FALSE (0001ms, 0845ms total)
T3144 001:325 JLINK_IsHalted()  returns FALSE (0001ms, 0845ms total)
T3144 001:327 JLINK_IsHalted()  returns FALSE (0001ms, 0845ms total)
T3144 001:329 JLINK_IsHalted() -- CPU_ReadMem(2 bytes @ 0x20000000)  returns TRUE (0005ms, 0849ms total)
T3144 001:334 JLINK_ReadReg(R15 (PC))  returns 0x20000000 (0000ms, 0844ms total)
T3144 001:334 JLINK_ClrBPEx(BPHandle = 0x00000008)  returns 0x00 (0000ms, 0844ms total)
T3144 001:334 JLINK_ReadReg(R0)  returns 0x00000000 (0000ms, 0844ms total)
T3144 001:334 JLINK_WriteMem(0x20000164, 0x0400 Bytes, ...) -- Data:  1D E0 80 20 30 41 00 EA 0B 00 50 B1 08 EB 05 02 ... -- CPU_WriteMem(1024 bytes @ 0x20000164)  returns 0x400 (0011ms, 0855ms total)
T3144 001:345 JLINK_WriteReg(R0, 0x08001000)  returns 0x00 (0001ms, 0856ms total)
T3144 001:346 JLINK_WriteReg(R1, 0x00000400)  returns 0x00 (0000ms, 0856ms total)
T3144 001:346 JLINK_WriteReg(R2, 0x20000164)  returns 0x00 (0000ms, 0856ms total)
T3144 001:346 JLINK_WriteReg(R3, 0x00000000)  returns 0x00 (0000ms, 0856ms total)
T3144 001:346 JLINK_WriteReg(R4, 0x00000000)  returns 0x00 (0000ms, 0856ms total)
T3144 001:346 JLINK_WriteReg(R5, 0x00000000)  returns 0x00 (0000ms, 0856ms total)
T3144 001:346 JLINK_WriteReg(R6, 0x00000000)  returns 0x00 (0000ms, 0856ms total)
T3144 001:346 JLINK_WriteReg(R7, 0x00000000)  returns 0x00 (0000ms, 0856ms total)
T3144 001:346 JLINK_WriteReg(R8, 0x00000000)  returns 0x00 (0000ms, 0856ms total)
T3144 001:346 JLINK_WriteReg(R9, 0x20000160)  returns 0x00 (0000ms, 0856ms total)
T3144 001:346 JLINK_WriteReg(R10, 0x00000000)  returns 0x00 (0000ms, 0856ms total)
T3144 001:346 JLINK_WriteReg(R11, 0x00000000)  returns 0x00 (0000ms, 0856ms total)
T3144 001:346 JLINK_WriteReg(R12, 0x00000000)  returns 0x00 (0000ms, 0856ms total)
T3144 001:346 JLINK_WriteReg(R13 (SP), 0x20000800)  returns 0x00 (0000ms, 0856ms total)
T3144 001:346 JLINK_WriteReg(R14, 0x20000001)  returns 0x00 (0000ms, 0856ms total)
T3144 001:346 JLINK_WriteReg(R15 (PC), 0x200000F4)  returns 0x00 (0000ms, 0856ms total)
T3144 001:346 JLINK_WriteReg(XPSR, 0x01000000)  returns 0x00 (0000ms, 0856ms total)
T3144 001:346 JLINK_WriteReg(MSP, 0x20000800)  returns 0x00 (0000ms, 0856ms total)
T3144 001:346 JLINK_WriteReg(PSP, 0x20000800)  returns 0x00 (0000ms, 0856ms total)
T3144 001:346 JLINK_WriteReg(CFBP, 0x00000000)  returns 0x00 (0000ms, 0856ms total)
T3144 001:346 JLINK_SetBPEx(Addr = 0x20000000, Type = 0xFFFFFFF2)  returns 0x00000009 (0000ms, 0856ms total)
T3144 001:346 JLINK_Go() (0002ms, 0858ms total)
T3144 001:349 JLINK_IsHalted()  returns FALSE (0001ms, 0860ms total)
T3144 001:351 JLINK_IsHalted()  returns FALSE (0001ms, 0860ms total)
T3144 001:353 JLINK_IsHalted()  returns FALSE (0001ms, 0860ms total)
T3144 001:355 JLINK_IsHalted()  returns FALSE (0001ms, 0860ms total)
T3144 001:359 JLINK_IsHalted()  returns FALSE (0001ms, 0860ms total)
T3144 001:361 JLINK_IsHalted()  returns FALSE (0001ms, 0860ms total)
T3144 001:363 JLINK_IsHalted()  returns FALSE (0001ms, 0860ms total)
T3144 001:365 JLINK_IsHalted()  returns FALSE (0001ms, 0860ms total)
T3144 001:367 JLINK_IsHalted()  returns FALSE (0001ms, 0860ms total)
T3144 001:369 JLINK_IsHalted()  returns FALSE (0001ms, 0860ms total)
T3144 001:372 JLINK_IsHalted()  returns FALSE (0001ms, 0860ms total)
T3144 001:374 JLINK_IsHalted()  returns FALSE (0001ms, 0860ms total)
T3144 001:376 JLINK_IsHalted()  returns FALSE (0001ms, 0860ms total)
T3144 001:378 JLINK_IsHalted()  returns FALSE (0001ms, 0860ms total)
T3144 001:380 JLINK_IsHalted() -- CPU_ReadMem(2 bytes @ 0x20000000)  returns TRUE (0005ms, 0864ms total)
T3144 001:385 JLINK_ReadReg(R15 (PC))  returns 0x20000000 (0000ms, 0859ms total)
T3144 001:385 JLINK_ClrBPEx(BPHandle = 0x00000009)  returns 0x00 (0000ms, 0859ms total)
T3144 001:385 JLINK_ReadReg(R0)  returns 0x00000000 (0000ms, 0859ms total)
T3144 001:386 JLINK_WriteMem(0x20000164, 0x0400 Bytes, ...) -- Data:  33 FE FF F7 63 FF FF F7 D7 FE FF F7 14 FF 31 48 ... -- CPU_WriteMem(1024 bytes @ 0x20000164)  returns 0x400 (0011ms, 0870ms total)
T3144 001:397 JLINK_WriteReg(R0, 0x08001400)  returns 0x00 (0000ms, 0870ms total)
T3144 001:397 JLINK_WriteReg(R1, 0x00000400)  returns 0x00 (0000ms, 0870ms total)
T3144 001:397 JLINK_WriteReg(R2, 0x20000164)  returns 0x00 (0000ms, 0870ms total)
T3144 001:397 JLINK_WriteReg(R3, 0x00000000)  returns 0x00 (0000ms, 0870ms total)
T3144 001:397 JLINK_WriteReg(R4, 0x00000000)  returns 0x00 (0000ms, 0870ms total)
T3144 001:398 JLINK_WriteReg(R5, 0x00000000)  returns 0x00 (0000ms, 0871ms total)
T3144 001:398 JLINK_WriteReg(R6, 0x00000000)  returns 0x00 (0000ms, 0871ms total)
T3144 001:398 JLINK_WriteReg(R7, 0x00000000)  returns 0x00 (0000ms, 0871ms total)
T3144 001:398 JLINK_WriteReg(R8, 0x00000000)  returns 0x00 (0000ms, 0871ms total)
T3144 001:398 JLINK_WriteReg(R9, 0x20000160)  returns 0x00 (0000ms, 0871ms total)
T3144 001:398 JLINK_WriteReg(R10, 0x00000000)  returns 0x00 (0000ms, 0871ms total)
T3144 001:398 JLINK_WriteReg(R11, 0x00000000)  returns 0x00 (0000ms, 0871ms total)
T3144 001:398 JLINK_WriteReg(R12, 0x00000000)  returns 0x00 (0000ms, 0871ms total)
T3144 001:398 JLINK_WriteReg(R13 (SP), 0x20000800)  returns 0x00 (0000ms, 0871ms total)
T3144 001:398 JLINK_WriteReg(R14, 0x20000001)  returns 0x00 (0000ms, 0871ms total)
T3144 001:398 JLINK_WriteReg(R15 (PC), 0x200000F4)  returns 0x00 (0000ms, 0871ms total)
T3144 001:398 JLINK_WriteReg(XPSR, 0x01000000)  returns 0x00 (0000ms, 0871ms total)
T3144 001:398 JLINK_WriteReg(MSP, 0x20000800)  returns 0x00 (0000ms, 0871ms total)
T3144 001:398 JLINK_WriteReg(PSP, 0x20000800)  returns 0x00 (0000ms, 0871ms total)
T3144 001:398 JLINK_WriteReg(CFBP, 0x00000000)  returns 0x00 (0000ms, 0871ms total)
T3144 001:398 JLINK_SetBPEx(Addr = 0x20000000, Type = 0xFFFFFFF2)  returns 0x0000000A (0000ms, 0871ms total)
T3144 001:398 JLINK_Go() (0002ms, 0873ms total)
T3144 001:400 JLINK_IsHalted()  returns FALSE (0001ms, 0874ms total)
T3144 001:403 JLINK_IsHalted()  returns FALSE (0001ms, 0874ms total)
T3144 001:405 JLINK_IsHalted()  returns FALSE (0001ms, 0874ms total)
T3144 001:407 JLINK_IsHalted()  returns FALSE (0001ms, 0874ms total)
T3144 001:409 JLINK_IsHalted()  returns FALSE (0001ms, 0874ms total)
T3144 001:411 JLINK_IsHalted()  returns FALSE (0001ms, 0874ms total)
T3144 001:413 JLINK_IsHalted()  returns FALSE (0001ms, 0874ms total)
T3144 001:415 JLINK_IsHalted()  returns FALSE (0001ms, 0874ms total)
T3144 001:417 JLINK_IsHalted()  returns FALSE (0001ms, 0874ms total)
T3144 001:419 JLINK_IsHalted()  returns FALSE (0001ms, 0874ms total)
T3144 001:421 JLINK_IsHalted()  returns FALSE (0001ms, 0874ms total)
T3144 001:423 JLINK_IsHalted()  returns FALSE (0001ms, 0874ms total)
T3144 001:425 JLINK_IsHalted()  returns FALSE (0001ms, 0874ms total)
T3144 001:427 JLINK_IsHalted()  returns FALSE (0001ms, 0874ms total)
T3144 001:429 JLINK_IsHalted()  returns FALSE (0001ms, 0874ms total)
T3144 001:431 JLINK_IsHalted() -- CPU_ReadMem(2 bytes @ 0x20000000)  returns TRUE (0005ms, 0878ms total)
T3144 001:436 JLINK_ReadReg(R15 (PC))  returns 0x20000000 (0000ms, 0873ms total)
T3144 001:436 JLINK_ClrBPEx(BPHandle = 0x0000000A)  returns 0x00 (0000ms, 0873ms total)
T3144 001:436 JLINK_ReadReg(R0)  returns 0x00000000 (0000ms, 0873ms total)
T3144 001:438 JLINK_WriteMem(0x20000164, 0x0400 Bytes, ...) -- Data:  00 00 01 40 00 00 20 42 DE 48 00 68 40 F0 01 00 ... -- CPU_WriteMem(1024 bytes @ 0x20000164)  returns 0x400 (0011ms, 0884ms total)
T3144 001:449 JLINK_WriteReg(R0, 0x08001800)  returns 0x00 (0000ms, 0884ms total)
T3144 001:449 JLINK_WriteReg(R1, 0x00000400)  returns 0x00 (0000ms, 0884ms total)
T3144 001:449 JLINK_WriteReg(R2, 0x20000164)  returns 0x00 (0000ms, 0884ms total)
T3144 001:449 JLINK_WriteReg(R3, 0x00000000)  returns 0x00 (0000ms, 0884ms total)
T3144 001:449 JLINK_WriteReg(R4, 0x00000000)  returns 0x00 (0000ms, 0884ms total)
T3144 001:449 JLINK_WriteReg(R5, 0x00000000)  returns 0x00 (0000ms, 0884ms total)
T3144 001:449 JLINK_WriteReg(R6, 0x00000000)  returns 0x00 (0000ms, 0884ms total)
T3144 001:449 JLINK_WriteReg(R7, 0x00000000)  returns 0x00 (0000ms, 0884ms total)
T3144 001:449 JLINK_WriteReg(R8, 0x00000000)  returns 0x00 (0000ms, 0884ms total)
T3144 001:449 JLINK_WriteReg(R9, 0x20000160)  returns 0x00 (0000ms, 0884ms total)
T3144 001:449 JLINK_WriteReg(R10, 0x00000000)  returns 0x00 (0000ms, 0884ms total)
T3144 001:449 JLINK_WriteReg(R11, 0x00000000)  returns 0x00 (0000ms, 0884ms total)
T3144 001:449 JLINK_WriteReg(R12, 0x00000000)  returns 0x00 (0000ms, 0884ms total)
T3144 001:449 JLINK_WriteReg(R13 (SP), 0x20000800)  returns 0x00 (0000ms, 0884ms total)
T3144 001:449 JLINK_WriteReg(R14, 0x20000001)  returns 0x00 (0000ms, 0884ms total)
T3144 001:449 JLINK_WriteReg(R15 (PC), 0x200000F4)  returns 0x00 (0000ms, 0884ms total)
T3144 001:449 JLINK_WriteReg(XPSR, 0x01000000)  returns 0x00 (0000ms, 0884ms total)
T3144 001:449 JLINK_WriteReg(MSP, 0x20000800)  returns 0x00 (0000ms, 0884ms total)
T3144 001:449 JLINK_WriteReg(PSP, 0x20000800)  returns 0x00 (0000ms, 0884ms total)
T3144 001:449 JLINK_WriteReg(CFBP, 0x00000000)  returns 0x00 (0000ms, 0884ms total)
T3144 001:449 JLINK_SetBPEx(Addr = 0x20000000, Type = 0xFFFFFFF2)  returns 0x0000000B (0001ms, 0885ms total)
T3144 001:450 JLINK_Go() (0002ms, 0887ms total)
T3144 001:452 JLINK_IsHalted()  returns FALSE (0001ms, 0888ms total)
T3144 001:455 JLINK_IsHalted()  returns FALSE (0001ms, 0888ms total)
T3144 001:457 JLINK_IsHalted()  returns FALSE (0001ms, 0888ms total)
T3144 001:459 JLINK_IsHalted()  returns FALSE (0001ms, 0888ms total)
T3144 001:461 JLINK_IsHalted()  returns FALSE (0001ms, 0888ms total)
T3144 001:465 JLINK_IsHalted()  returns FALSE (0001ms, 0888ms total)
T3144 001:467 JLINK_IsHalted()  returns FALSE (0001ms, 0888ms total)
T3144 001:469 JLINK_IsHalted()  returns FALSE (0001ms, 0888ms total)
T3144 001:471 JLINK_IsHalted()  returns FALSE (0001ms, 0888ms total)
T3144 001:473 JLINK_IsHalted()  returns FALSE (0001ms, 0888ms total)
T3144 001:475 JLINK_IsHalted()  returns FALSE (0001ms, 0888ms total)
T3144 001:477 JLINK_IsHalted()  returns FALSE (0001ms, 0888ms total)
T3144 001:482 JLINK_IsHalted()  returns FALSE (0001ms, 0888ms total)
T3144 001:484 JLINK_IsHalted() -- CPU_ReadMem(2 bytes @ 0x20000000)  returns TRUE (0005ms, 0892ms total)
T3144 001:489 JLINK_ReadReg(R15 (PC))  returns 0x20000000 (0000ms, 0887ms total)
T3144 001:489 JLINK_ClrBPEx(BPHandle = 0x0000000B)  returns 0x00 (0000ms, 0887ms total)
T3144 001:489 JLINK_ReadReg(R0)  returns 0x00000000 (0000ms, 0887ms total)
T3144 001:489 JLINK_WriteMem(0x20000164, 0x0400 Bytes, ...) -- Data:  10 B5 00 22 02 88 02 F4 41 52 0B 88 4C 88 23 43 ... -- CPU_WriteMem(1024 bytes @ 0x20000164)  returns 0x400 (0011ms, 0898ms total)
T3144 001:500 JLINK_WriteReg(R0, 0x08001C00)  returns 0x00 (0001ms, 0899ms total)
T3144 001:501 JLINK_WriteReg(R1, 0x00000400)  returns 0x00 (0000ms, 0899ms total)
T3144 001:501 JLINK_WriteReg(R2, 0x20000164)  returns 0x00 (0000ms, 0899ms total)
T3144 001:501 JLINK_WriteReg(R3, 0x00000000)  returns 0x00 (0000ms, 0899ms total)
T3144 001:501 JLINK_WriteReg(R4, 0x00000000)  returns 0x00 (0000ms, 0899ms total)
T3144 001:501 JLINK_WriteReg(R5, 0x00000000)  returns 0x00 (0000ms, 0899ms total)
T3144 001:501 JLINK_WriteReg(R6, 0x00000000)  returns 0x00 (0000ms, 0899ms total)
T3144 001:501 JLINK_WriteReg(R7, 0x00000000)  returns 0x00 (0000ms, 0899ms total)
T3144 001:501 JLINK_WriteReg(R8, 0x00000000)  returns 0x00 (0000ms, 0899ms total)
T3144 001:501 JLINK_WriteReg(R9, 0x20000160)  returns 0x00 (0000ms, 0899ms total)
T3144 001:501 JLINK_WriteReg(R10, 0x00000000)  returns 0x00 (0000ms, 0899ms total)
T3144 001:501 JLINK_WriteReg(R11, 0x00000000)  returns 0x00 (0000ms, 0899ms total)
T3144 001:501 JLINK_WriteReg(R12, 0x00000000)  returns 0x00 (0000ms, 0899ms total)
T3144 001:501 JLINK_WriteReg(R13 (SP), 0x20000800)  returns 0x00 (0000ms, 0899ms total)
T3144 001:501 JLINK_WriteReg(R14, 0x20000001)  returns 0x00 (0000ms, 0899ms total)
T3144 001:501 JLINK_WriteReg(R15 (PC), 0x200000F4)  returns 0x00 (0000ms, 0899ms total)
T3144 001:501 JLINK_WriteReg(XPSR, 0x01000000)  returns 0x00 (0000ms, 0899ms total)
T3144 001:501 JLINK_WriteReg(MSP, 0x20000800)  returns 0x00 (0000ms, 0899ms total)
T3144 001:501 JLINK_WriteReg(PSP, 0x20000800)  returns 0x00 (0000ms, 0899ms total)
T3144 001:501 JLINK_WriteReg(CFBP, 0x00000000)  returns 0x00 (0000ms, 0899ms total)
T3144 001:501 JLINK_SetBPEx(Addr = 0x20000000, Type = 0xFFFFFFF2)  returns 0x0000000C (0000ms, 0899ms total)
T3144 001:501 JLINK_Go() (0002ms, 0901ms total)
T3144 001:503 JLINK_IsHalted()  returns FALSE (0001ms, 0902ms total)
T3144 001:506 JLINK_IsHalted()  returns FALSE (0001ms, 0902ms total)
T3144 001:508 JLINK_IsHalted()  returns FALSE (0001ms, 0902ms total)
T3144 001:512 JLINK_IsHalted()  returns FALSE (0001ms, 0902ms total)
T3144 001:514 JLINK_IsHalted()  returns FALSE (0001ms, 0902ms total)
T3144 001:516 JLINK_IsHalted()  returns FALSE (0001ms, 0902ms total)
T3144 001:518 JLINK_IsHalted()  returns FALSE (0001ms, 0902ms total)
T3144 001:520 JLINK_IsHalted()  returns FALSE (0001ms, 0902ms total)
T3144 001:522 JLINK_IsHalted()  returns FALSE (0001ms, 0902ms total)
T3144 001:524 JLINK_IsHalted()  returns FALSE (0001ms, 0902ms total)
T3144 001:526 JLINK_IsHalted()  returns FALSE (0001ms, 0902ms total)
T3144 001:528 JLINK_IsHalted()  returns FALSE (0001ms, 0902ms total)
T3144 001:530 JLINK_IsHalted()  returns FALSE (0001ms, 0902ms total)
T3144 001:532 JLINK_IsHalted()  returns FALSE (0001ms, 0902ms total)
T3144 001:534 JLINK_IsHalted() -- CPU_ReadMem(2 bytes @ 0x20000000)  returns TRUE (0005ms, 0906ms total)
T3144 001:539 JLINK_ReadReg(R15 (PC))  returns 0x20000000 (0000ms, 0901ms total)
T3144 001:539 JLINK_ClrBPEx(BPHandle = 0x0000000C)  returns 0x00 (0000ms, 0901ms total)
T3144 001:539 JLINK_ReadReg(R0)  returns 0x00000000 (0000ms, 0901ms total)
T3144 001:539 JLINK_WriteMem(0x20000164, 0x0400 Bytes, ...) -- Data:  9C 46 00 08 02 E0 08 C8 12 1F 08 C1 00 2A FA D1 ... -- CPU_WriteMem(1024 bytes @ 0x20000164)  returns 0x400 (0011ms, 0912ms total)
T3144 001:550 JLINK_WriteReg(R0, 0x08002000)  returns 0x00 (0000ms, 0912ms total)
T3144 001:550 JLINK_WriteReg(R1, 0x00000400)  returns 0x00 (0000ms, 0912ms total)
T3144 001:550 JLINK_WriteReg(R2, 0x20000164)  returns 0x00 (0000ms, 0912ms total)
T3144 001:550 JLINK_WriteReg(R3, 0x00000000)  returns 0x00 (0001ms, 0913ms total)
T3144 001:551 JLINK_WriteReg(R4, 0x00000000)  returns 0x00 (0000ms, 0913ms total)
T3144 001:551 JLINK_WriteReg(R5, 0x00000000)  returns 0x00 (0000ms, 0913ms total)
T3144 001:551 JLINK_WriteReg(R6, 0x00000000)  returns 0x00 (0000ms, 0913ms total)
T3144 001:551 JLINK_WriteReg(R7, 0x00000000)  returns 0x00 (0000ms, 0913ms total)
T3144 001:551 JLINK_WriteReg(R8, 0x00000000)  returns 0x00 (0000ms, 0913ms total)
T3144 001:551 JLINK_WriteReg(R9, 0x20000160)  returns 0x00 (0000ms, 0913ms total)
T3144 001:551 JLINK_WriteReg(R10, 0x00000000)  returns 0x00 (0000ms, 0913ms total)
T3144 001:551 JLINK_WriteReg(R11, 0x00000000)  returns 0x00 (0000ms, 0913ms total)
T3144 001:551 JLINK_WriteReg(R12, 0x00000000)  returns 0x00 (0000ms, 0913ms total)
T3144 001:551 JLINK_WriteReg(R13 (SP), 0x20000800)  returns 0x00 (0000ms, 0913ms total)
T3144 001:551 JLINK_WriteReg(R14, 0x20000001)  returns 0x00 (0000ms, 0913ms total)
T3144 001:551 JLINK_WriteReg(R15 (PC), 0x200000F4)  returns 0x00 (0000ms, 0913ms total)
T3144 001:551 JLINK_WriteReg(XPSR, 0x01000000)  returns 0x00 (0000ms, 0913ms total)
T3144 001:551 JLINK_WriteReg(MSP, 0x20000800)  returns 0x00 (0000ms, 0913ms total)
T3144 001:551 JLINK_WriteReg(PSP, 0x20000800)  returns 0x00 (0000ms, 0913ms total)
T3144 001:551 JLINK_WriteReg(CFBP, 0x00000000)  returns 0x00 (0000ms, 0913ms total)
T3144 001:551 JLINK_SetBPEx(Addr = 0x20000000, Type = 0xFFFFFFF2)  returns 0x0000000D (0000ms, 0913ms total)
T3144 001:551 JLINK_Go() (0002ms, 0915ms total)
T3144 001:553 JLINK_IsHalted()  returns FALSE (0001ms, 0916ms total)
T3144 001:555 JLINK_IsHalted()  returns FALSE (0000ms, 0915ms total)
T3144 001:556 JLINK_IsHalted()  returns FALSE (0000ms, 0915ms total)
T3144 001:557 JLINK_IsHalted()  returns FALSE (0000ms, 0915ms total)
T3144 001:560 JLINK_IsHalted()  returns FALSE (0001ms, 0916ms total)
T3144 001:562 JLINK_IsHalted()  returns FALSE (0001ms, 0916ms total)
T3144 001:564 JLINK_IsHalted()  returns FALSE (0001ms, 0916ms total)
T3144 001:566 JLINK_IsHalted()  returns FALSE (0001ms, 0916ms total)
T3144 001:568 JLINK_IsHalted()  returns FALSE (0001ms, 0916ms total)
T3144 001:570 JLINK_IsHalted()  returns FALSE (0001ms, 0916ms total)
T3144 001:572 JLINK_IsHalted()  returns FALSE (0001ms, 0916ms total)
T3144 001:576 JLINK_IsHalted()  returns FALSE (0001ms, 0916ms total)
T3144 001:578 JLINK_IsHalted()  returns FALSE (0001ms, 0916ms total)
T3144 001:580 JLINK_IsHalted()  returns FALSE (0001ms, 0916ms total)
T3144 001:582 JLINK_IsHalted()  returns FALSE (0001ms, 0916ms total)
T3144 001:584 JLINK_IsHalted() -- CPU_ReadMem(2 bytes @ 0x20000000)  returns TRUE (0005ms, 0920ms total)
T3144 001:589 JLINK_ReadReg(R15 (PC))  returns 0x20000000 (0000ms, 0915ms total)
T3144 001:589 JLINK_ClrBPEx(BPHandle = 0x0000000D)  returns 0x00 (0000ms, 0915ms total)
T3144 001:589 JLINK_ReadReg(R0)  returns 0x00000000 (0000ms, 0915ms total)
T3144 001:589 JLINK_WriteMem(0x20000164, 0x0400 Bytes, ...) -- Data:  70 00 00 30 48 84 00 00 00 00 00 00 00 00 00 00 ... -- CPU_WriteMem(1024 bytes @ 0x20000164)  returns 0x400 (0011ms, 0926ms total)
T3144 001:600 JLINK_WriteReg(R0, 0x08002400)  returns 0x00 (0000ms, 0926ms total)
T3144 001:600 JLINK_WriteReg(R1, 0x00000400)  returns 0x00 (0001ms, 0927ms total)
T3144 001:601 JLINK_WriteReg(R2, 0x20000164)  returns 0x00 (0000ms, 0927ms total)
T3144 001:601 JLINK_WriteReg(R3, 0x00000000)  returns 0x00 (0000ms, 0927ms total)
T3144 001:601 JLINK_WriteReg(R4, 0x00000000)  returns 0x00 (0000ms, 0927ms total)
T3144 001:601 JLINK_WriteReg(R5, 0x00000000)  returns 0x00 (0000ms, 0927ms total)
T3144 001:601 JLINK_WriteReg(R6, 0x00000000)  returns 0x00 (0000ms, 0927ms total)
T3144 001:601 JLINK_WriteReg(R7, 0x00000000)  returns 0x00 (0000ms, 0927ms total)
T3144 001:601 JLINK_WriteReg(R8, 0x00000000)  returns 0x00 (0000ms, 0927ms total)
T3144 001:601 JLINK_WriteReg(R9, 0x20000160)  returns 0x00 (0000ms, 0927ms total)
T3144 001:601 JLINK_WriteReg(R10, 0x00000000)  returns 0x00 (0000ms, 0927ms total)
T3144 001:601 JLINK_WriteReg(R11, 0x00000000)  returns 0x00 (0000ms, 0927ms total)
T3144 001:601 JLINK_WriteReg(R12, 0x00000000)  returns 0x00 (0000ms, 0927ms total)
T3144 001:601 JLINK_WriteReg(R13 (SP), 0x20000800)  returns 0x00 (0000ms, 0927ms total)
T3144 001:601 JLINK_WriteReg(R14, 0x20000001)  returns 0x00 (0000ms, 0927ms total)
T3144 001:601 JLINK_WriteReg(R15 (PC), 0x200000F4)  returns 0x00 (0000ms, 0927ms total)
T3144 001:601 JLINK_WriteReg(XPSR, 0x01000000)  returns 0x00 (0000ms, 0927ms total)
T3144 001:601 JLINK_WriteReg(MSP, 0x20000800)  returns 0x00 (0000ms, 0927ms total)
T3144 001:601 JLINK_WriteReg(PSP, 0x20000800)  returns 0x00 (0000ms, 0927ms total)
T3144 001:601 JLINK_WriteReg(CFBP, 0x00000000)  returns 0x00 (0000ms, 0927ms total)
T3144 001:601 JLINK_SetBPEx(Addr = 0x20000000, Type = 0xFFFFFFF2)  returns 0x0000000E (0000ms, 0927ms total)
T3144 001:601 JLINK_Go() (0002ms, 0929ms total)
T3144 001:603 JLINK_IsHalted()  returns FALSE (0001ms, 0930ms total)
T3144 001:608 JLINK_IsHalted()  returns FALSE (0001ms, 0930ms total)
T3144 001:610 JLINK_IsHalted()  returns FALSE (0001ms, 0930ms total)
T3144 001:612 JLINK_IsHalted()  returns FALSE (0001ms, 0930ms total)
T3144 001:614 JLINK_IsHalted()  returns FALSE (0001ms, 0930ms total)
T3144 001:616 JLINK_IsHalted()  returns FALSE (0001ms, 0930ms total)
T3144 001:618 JLINK_IsHalted()  returns FALSE (0001ms, 0930ms total)
T3144 001:620 JLINK_IsHalted()  returns FALSE (0001ms, 0930ms total)
T3144 001:622 JLINK_IsHalted()  returns FALSE (0001ms, 0930ms total)
T3144 001:626 JLINK_IsHalted()  returns FALSE (0001ms, 0930ms total)
T3144 001:628 JLINK_IsHalted()  returns FALSE (0001ms, 0930ms total)
T3144 001:630 JLINK_IsHalted()  returns FALSE (0001ms, 0930ms total)
T3144 001:632 JLINK_IsHalted()  returns FALSE (0001ms, 0930ms total)
T3144 001:634 JLINK_IsHalted() -- CPU_ReadMem(2 bytes @ 0x20000000)  returns TRUE (0005ms, 0934ms total)
T3144 001:639 JLINK_ReadReg(R15 (PC))  returns 0x20000000 (0000ms, 0929ms total)
T3144 001:639 JLINK_ClrBPEx(BPHandle = 0x0000000E)  returns 0x00 (0000ms, 0929ms total)
T3144 001:639 JLINK_ReadReg(R0)  returns 0x00000000 (0000ms, 0929ms total)
T3144 001:639 JLINK_WriteMem(0x20000164, 0x0400 Bytes, ...) -- Data:  00 18 00 00 7F 80 00 00 FF C0 00 01 FF C0 00 03 ... -- CPU_WriteMem(1024 bytes @ 0x20000164)  returns 0x400 (0012ms, 0941ms total)
T3144 001:651 JLINK_WriteReg(R0, 0x08002800)  returns 0x00 (0000ms, 0941ms total)
